time	V(vout)	V(vrail)	V(vswitch)
0.000000000000000e+000	2.666983e-023	0.000000e+000	0.000000e+000
2.794999999999993e-005	-6.720539e-020	0.000000e+000	0.000000e+000
5.795000000000057e-005	-1.376798e-019	0.000000e+000	0.000000e+000
8.795000000000130e-005	5.732760e-020	0.000000e+000	0.000000e+000
1.179500000000020e-004	5.742426e-019	0.000000e+000	0.000000e+000
1.479500000000028e-004	4.440999e-019	0.000000e+000	0.000000e+000
1.779500000000035e-004	3.476873e-019	0.000000e+000	0.000000e+000
2.079500000000042e-004	2.762627e-019	0.000000e+000	0.000000e+000
2.379500000000049e-004	2.233499e-019	0.000000e+000	0.000000e+000
2.679500000000057e-004	1.841509e-019	0.000000e+000	0.000000e+000
2.979500000000064e-004	1.551114e-019	0.000000e+000	0.000000e+000
3.279500000000071e-004	1.335984e-019	0.000000e+000	0.000000e+000
3.579500000000079e-004	1.176610e-019	0.000000e+000	0.000000e+000
3.879500000000086e-004	1.058543e-019	0.000000e+000	0.000000e+000
4.179500000000093e-004	9.710759e-020	0.000000e+000	0.000000e+000
4.479500000000101e-004	9.062786e-020	0.000000e+000	0.000000e+000
4.779500000000108e-004	8.582752e-020	0.000000e+000	0.000000e+000
5.000000000000000e-004	0.000000e+000	0.000000e+000	0.000000e+000
5.000000001000000e-004	6.990624e-005	5.999999e-001	0.000000e+000
5.000000002999999e-004	2.058948e-004	1.799999e+000	0.000000e+000
5.000000004427459e-004	3.047181e-004	2.656476e+000	0.000000e+000
5.000000005006470e-004	3.460340e-004	3.003881e+000	0.000000e+000
5.000000005050236e-004	3.491103e-004	3.030141e+000	0.000000e+000
5.000000005061651e-004	3.498170e-004	3.036991e+000	0.000000e+000
5.000000005070314e-004	3.502857e-004	3.042188e+000	0.000000e+000
5.000000005075435e-004	3.505576e-004	3.045261e+000	0.000000e+000
5.000000005089707e-004	3.513511e-004	3.053824e+000	0.000000e+000
5.000000005146800e-004	3.544916e-004	3.088080e+000	0.000000e+000
5.000000005375170e-004	3.666860e-004	3.225101e+000	0.000000e+000
5.000000007506626e-004	4.753536e-004	4.503975e+000	0.000000e+000
5.000000009942575e-004	5.941602e-004	5.965545e+000	0.000000e+000
5.000000010000000e-004	5.969001e-004	6.000000e+000	0.000000e+000
5.000000010029178e-004	5.972204e-004	6.000000e+000	0.000000e+000
5.000000010087533e-004	5.978527e-004	6.000000e+000	0.000000e+000
5.000000010437667e-004	6.013692e-004	6.000000e+000	0.000000e+000
5.000000010904510e-004	6.054032e-004	6.000000e+000	0.000000e+000
5.000000011838198e-004	6.117259e-004	6.000000e+000	0.000000e+000
5.000000013705572e-004	6.201956e-004	6.000000e+000	0.000000e+000
5.000000016263037e-004	6.266746e-004	6.000000e+000	0.000000e+000
5.000000019126802e-004	6.299121e-004	6.000000e+000	0.000000e+000
5.000000022681503e-004	6.313422e-004	6.000000e+000	0.000000e+000
5.000000027322045e-004	6.318683e-004	6.000000e+000	0.000000e+000
5.000000034313946e-004	6.320116e-004	6.000000e+000	0.000000e+000
5.000000045508914e-004	6.320296e-004	6.000000e+000	0.000000e+000
5.000000067898849e-004	6.320286e-004	6.000000e+000	0.000000e+000
5.000000102905504e-004	6.320287e-004	5.999999e+000	0.000000e+000
5.000000150050778e-004	6.320286e-004	5.999999e+000	0.000000e+000
5.000000228914271e-004	6.320284e-004	5.999998e+000	0.000000e+000
5.000000386641255e-004	6.320280e-004	5.999996e+000	0.000000e+000
5.000000702095225e-004	6.320273e-004	5.999993e+000	0.000000e+000
5.000001333003163e-004	6.320259e-004	5.999987e+000	0.000000e+000
5.000002594819041e-004	6.320231e-004	5.999974e+000	0.000000e+000
5.000005118450796e-004	6.320174e-004	5.999949e+000	0.000000e+000
5.000010165714306e-004	6.320060e-004	5.999898e+000	0.000000e+000
5.000020260241325e-004	6.319834e-004	5.999797e+000	0.000000e+000
5.000040449295364e-004	6.319382e-004	5.999596e+000	0.000000e+000
5.000077034788595e-004	6.318567e-004	5.999230e+000	0.000000e+000
5.000115553739757e-004	6.317716e-004	5.998845e+000	0.000000e+000
5.000166144332858e-004	6.316608e-004	5.998339e+000	0.000000e+000
5.000219596527486e-004	6.315449e-004	5.997804e+000	0.000000e+000
5.000290048753721e-004	6.313942e-004	5.997099e+000	0.000000e+000
5.000369199009734e-004	6.312276e-004	5.996308e+000	0.000000e+000
5.000476520445481e-004	6.310069e-004	5.995235e+000	0.000000e+000
5.000608125567518e-004	6.307447e-004	5.993919e+000	0.000000e+000
5.000804712924541e-004	6.303722e-004	5.991953e+000	0.000000e+000
5.001091560373807e-004	6.298801e-004	5.989085e+000	0.000000e+000
5.001651109704680e-004	6.291349e-004	5.983489e+000	0.000000e+000
5.002651109704679e-004	6.284784e-004	5.973489e+000	0.000000e+000
5.003651109704679e-004	6.289481e-004	5.963489e+000	0.000000e+000
5.004651109704678e-004	6.311546e-004	5.953489e+000	0.000000e+000
5.005651109704678e-004	6.358264e-004	5.943489e+000	0.000000e+000
5.006651109704677e-004	6.439392e-004	5.933489e+000	0.000000e+000
5.007651109704676e-004	6.567714e-004	5.923489e+000	0.000000e+000
5.008651109704676e-004	6.759597e-004	5.913489e+000	0.000000e+000
5.009651109704675e-004	7.035533e-004	5.903489e+000	0.000000e+000
5.010651109704675e-004	7.420609e-004	5.893489e+000	0.000000e+000
5.011651109704674e-004	7.944853e-004	5.883489e+000	0.000000e+000
5.012651109704674e-004	8.643414e-004	5.873489e+000	0.000000e+000
5.013651109704673e-004	9.556518e-004	5.863489e+000	0.000000e+000
5.014651109704673e-004	1.072917e-003	5.853489e+000	0.000000e+000
5.015651109704672e-004	1.221056e-003	5.843489e+000	0.000000e+000
5.016651109704672e-004	1.405320e-003	5.833489e+000	0.000000e+000
5.017651109704671e-004	1.631178e-003	5.823489e+000	0.000000e+000
5.018651109704671e-004	1.904175e-003	5.813489e+000	0.000000e+000
5.019651109704670e-004	2.229777e-003	5.803489e+000	0.000000e+000
5.020651109704670e-004	2.613198e-003	5.793489e+000	0.000000e+000
5.021651109704669e-004	3.059231e-003	5.783489e+000	0.000000e+000
5.022651109704669e-004	3.572077e-003	5.773489e+000	0.000000e+000
5.023651109704668e-004	4.155190e-003	5.763489e+000	0.000000e+000
5.024651109704668e-004	4.811144e-003	5.753489e+000	0.000000e+000
5.025651109704667e-004	5.541526e-003	5.743489e+000	0.000000e+000
5.026651109704667e-004	6.346863e-003	5.733489e+000	0.000000e+000
5.027651109704666e-004	7.226582e-003	5.723489e+000	0.000000e+000
5.028651109704666e-004	8.179007e-003	5.713489e+000	0.000000e+000
5.029651109704665e-004	9.201391e-003	5.703489e+000	0.000000e+000
5.030651109704665e-004	1.028998e-002	5.693489e+000	0.000000e+000
5.031651109704664e-004	1.144011e-002	5.683489e+000	0.000000e+000
5.032651109704664e-004	1.264630e-002	5.673489e+000	0.000000e+000
5.033651109704663e-004	1.390242e-002	5.663489e+000	0.000000e+000
5.034651109704663e-004	1.520179e-002	5.653489e+000	0.000000e+000
5.035651109704662e-004	1.653736e-002	5.643489e+000	0.000000e+000
5.036651109704661e-004	1.790186e-002	5.633489e+000	0.000000e+000
5.037651109704661e-004	1.928790e-002	5.623489e+000	0.000000e+000
5.038651109704660e-004	2.068814e-002	5.613489e+000	0.000000e+000
5.039651109704660e-004	2.209539e-002	5.603489e+000	0.000000e+000
5.040651109704659e-004	2.350274e-002	5.593489e+000	0.000000e+000
5.041651109704659e-004	2.490361e-002	5.583489e+000	0.000000e+000
5.042651109704658e-004	2.629186e-002	5.573489e+000	0.000000e+000
5.043651109704658e-004	2.766182e-002	5.563489e+000	0.000000e+000
5.044651109704657e-004	2.900834e-002	5.553489e+000	0.000000e+000
5.045651109704657e-004	3.032682e-002	5.543489e+000	0.000000e+000
5.046651109704656e-004	3.161320e-002	5.533489e+000	0.000000e+000
5.047651109704656e-004	3.286400e-002	5.523489e+000	0.000000e+000
5.048651109704655e-004	3.407627e-002	5.513489e+000	0.000000e+000
5.049651109704655e-004	3.524759e-002	5.503489e+000	0.000000e+000
5.050651109704654e-004	3.637605e-002	5.493489e+000	0.000000e+000
5.051651109704654e-004	3.746019e-002	5.483489e+000	0.000000e+000
5.053651109704653e-004	3.949193e-002	5.463489e+000	0.000000e+000
5.055651109704652e-004	4.133935e-002	5.443489e+000	0.000000e+000
5.057651109704651e-004	4.300418e-002	5.423489e+000	0.000000e+000
5.059651109704650e-004	4.449221e-002	5.403489e+000	0.000000e+000
5.060651109704649e-004	4.517255e-002	5.393489e+000	0.000000e+000
5.061651109704649e-004	4.581213e-002	5.383489e+000	0.000000e+000
5.062651109704648e-004	4.641234e-002	5.373489e+000	0.000000e+000
5.063651109704648e-004	4.697464e-002	5.363489e+000	0.000000e+000
5.064651109704647e-004	4.750054e-002	5.353489e+000	0.000000e+000
5.065651109704646e-004	4.799160e-002	5.343489e+000	0.000000e+000
5.066651109704646e-004	4.844939e-002	5.333489e+000	0.000000e+000
5.067651109704645e-004	4.887546e-002	5.323489e+000	0.000000e+000
5.068651109704645e-004	4.927138e-002	5.313489e+000	0.000000e+000
5.069651109704644e-004	4.963869e-002	5.303489e+000	0.000000e+000
5.070651109704644e-004	4.997889e-002	5.293489e+000	0.000000e+000
5.071651109704643e-004	5.029346e-002	5.283489e+000	0.000000e+000
5.072651109704643e-004	5.058383e-002	5.273489e+000	0.000000e+000
5.073651109704642e-004	5.085139e-002	5.263489e+000	0.000000e+000
5.074651109704642e-004	5.109746e-002	5.253489e+000	0.000000e+000
5.075651109704641e-004	5.132332e-002	5.243489e+000	0.000000e+000
5.076651109704641e-004	5.153022e-002	5.233489e+000	0.000000e+000
5.077651109704640e-004	5.171932e-002	5.223489e+000	0.000000e+000
5.078651109704640e-004	5.189174e-002	5.213489e+000	0.000000e+000
5.079651109704639e-004	5.204853e-002	5.203489e+000	0.000000e+000
5.080651109704639e-004	5.219071e-002	5.193489e+000	0.000000e+000
5.081651109704638e-004	5.231923e-002	5.183489e+000	0.000000e+000
5.082651109704638e-004	5.243499e-002	5.173489e+000	0.000000e+000
5.083651109704637e-004	5.253884e-002	5.163489e+000	0.000000e+000
5.084651109704637e-004	5.263158e-002	5.153489e+000	0.000000e+000
5.085651109704636e-004	5.271397e-002	5.143489e+000	0.000000e+000
5.086651109704636e-004	5.278671e-002	5.133489e+000	0.000000e+000
5.087651109704635e-004	5.285046e-002	5.123489e+000	0.000000e+000
5.088651109704635e-004	5.290586e-002	5.113489e+000	0.000000e+000
5.089651109704634e-004	5.295347e-002	5.103489e+000	0.000000e+000
5.090651109704634e-004	5.299386e-002	5.093489e+000	0.000000e+000
5.091651109704633e-004	5.302751e-002	5.083489e+000	0.000000e+000
5.092651109704632e-004	5.305493e-002	5.073489e+000	0.000000e+000
5.093651109704632e-004	5.307654e-002	5.063489e+000	0.000000e+000
5.094651109704631e-004	5.309276e-002	5.053489e+000	0.000000e+000
5.095651109704631e-004	5.310397e-002	5.043489e+000	0.000000e+000
5.096651109704630e-004	5.311055e-002	5.033489e+000	0.000000e+000
5.097651109704630e-004	5.311282e-002	5.023489e+000	0.000000e+000
5.098651109704629e-004	5.311109e-002	5.013489e+000	0.000000e+000
5.099651109704629e-004	5.310621e-002	5.003489e+000	0.000000e+000
5.100000000000000e-004	5.310377e-002	5.000000e+000	0.000000e+000
5.100100000000001e-004	5.310297e-002	5.000000e+000	0.000000e+000
5.100300000000001e-004	5.310130e-002	5.000000e+000	0.000000e+000
5.100700000000001e-004	5.309757e-002	5.000000e+000	0.000000e+000
5.101482956843472e-004	5.308921e-002	5.000000e+000	0.000000e+000
5.102295520893749e-004	5.307908e-002	5.000000e+000	0.000000e+000
5.103295520893749e-004	5.306460e-002	5.000000e+000	0.000000e+000
5.104295520893748e-004	5.304810e-002	5.000000e+000	0.000000e+000
5.105295520893748e-004	5.302963e-002	5.000000e+000	0.000000e+000
5.106295520893747e-004	5.300933e-002	5.000000e+000	0.000000e+000
5.108295520893746e-004	5.296369e-002	5.000000e+000	0.000000e+000
5.110295520893745e-004	5.291206e-002	5.000000e+000	0.000000e+000
5.112295520893744e-004	5.285518e-002	5.000000e+000	0.000000e+000
5.113295520893744e-004	5.282498e-002	5.000000e+000	0.000000e+000
5.114295520893743e-004	5.279370e-002	5.000000e+000	0.000000e+000
5.115295520893743e-004	5.276142e-002	5.000000e+000	0.000000e+000
5.116295520893742e-004	5.272818e-002	5.000000e+000	0.000000e+000
5.117295520893742e-004	5.269405e-002	5.000000e+000	0.000000e+000
5.118295520893741e-004	5.265907e-002	5.000000e+000	0.000000e+000
5.119295520893741e-004	5.262331e-002	5.000000e+000	0.000000e+000
5.120295520893740e-004	5.258680e-002	5.000000e+000	0.000000e+000
5.121295520893740e-004	5.254959e-002	5.000000e+000	0.000000e+000
5.122295520893739e-004	5.251173e-002	5.000000e+000	0.000000e+000
5.123295520893738e-004	5.247324e-002	5.000000e+000	0.000000e+000
5.124295520893738e-004	5.243417e-002	5.000000e+000	0.000000e+000
5.125295520893737e-004	5.239454e-002	5.000000e+000	0.000000e+000
5.126295520893737e-004	5.235439e-002	5.000000e+000	0.000000e+000
5.127295520893736e-004	5.231375e-002	5.000000e+000	0.000000e+000
5.128295520893736e-004	5.227264e-002	5.000000e+000	0.000000e+000
5.129295520893735e-004	5.223110e-002	5.000000e+000	0.000000e+000
5.130295520893735e-004	5.218914e-002	5.000000e+000	0.000000e+000
5.131295520893734e-004	5.214679e-002	5.000000e+000	0.000000e+000
5.132295520893734e-004	5.210408e-002	5.000000e+000	0.000000e+000
5.133295520893733e-004	5.206101e-002	5.000000e+000	0.000000e+000
5.134295520893733e-004	5.201761e-002	5.000000e+000	0.000000e+000
5.135295520893732e-004	5.197391e-002	5.000000e+000	0.000000e+000
5.137295520893731e-004	5.188563e-002	5.000000e+000	0.000000e+000
5.139295520893730e-004	5.179631e-002	5.000000e+000	0.000000e+000
5.141295520893729e-004	5.170604e-002	5.000000e+000	0.000000e+000
5.143295520893728e-004	5.161495e-002	5.000000e+000	0.000000e+000
5.145295520893727e-004	5.152311e-002	5.000000e+000	0.000000e+000
5.147295520893726e-004	5.143061e-002	5.000000e+000	0.000000e+000
5.149295520893725e-004	5.133753e-002	5.000000e+000	0.000000e+000
5.151295520893724e-004	5.124393e-002	5.000000e+000	0.000000e+000
5.153295520893723e-004	5.114987e-002	5.000000e+000	0.000000e+000
5.155295520893722e-004	5.105541e-002	5.000000e+000	0.000000e+000
5.157295520893721e-004	5.096060e-002	5.000000e+000	0.000000e+000
5.159295520893720e-004	5.086548e-002	5.000000e+000	0.000000e+000
5.161295520893719e-004	5.077009e-002	5.000000e+000	0.000000e+000
5.163295520893718e-004	5.067447e-002	5.000000e+000	0.000000e+000
5.165295520893717e-004	5.057866e-002	5.000000e+000	0.000000e+000
5.167295520893716e-004	5.048269e-002	5.000000e+000	0.000000e+000
5.168295520893715e-004	5.043465e-002	5.000000e+000	0.000000e+000
5.169295520893715e-004	5.038658e-002	5.000000e+000	0.000000e+000
5.170295520893714e-004	5.033848e-002	5.000000e+000	0.000000e+000
5.171295520893714e-004	5.029036e-002	5.000000e+000	0.000000e+000
5.172295520893713e-004	5.024222e-002	5.000000e+000	0.000000e+000
5.173295520893713e-004	5.019405e-002	5.000000e+000	0.000000e+000
5.174295520893712e-004	5.014588e-002	5.000000e+000	0.000000e+000
5.175295520893712e-004	5.009768e-002	5.000000e+000	0.000000e+000
5.176295520893711e-004	5.004948e-002	5.000000e+000	0.000000e+000
5.177295520893711e-004	5.000127e-002	5.000000e+000	0.000000e+000
5.178295520893710e-004	4.995305e-002	5.000000e+000	0.000000e+000
5.179295520893710e-004	4.990483e-002	5.000000e+000	0.000000e+000
5.180295520893709e-004	4.985660e-002	5.000000e+000	0.000000e+000
5.181295520893708e-004	4.980837e-002	5.000000e+000	0.000000e+000
5.182295520893708e-004	4.976015e-002	5.000000e+000	0.000000e+000
5.183295520893707e-004	4.971193e-002	5.000000e+000	0.000000e+000
5.185295520893706e-004	4.961550e-002	5.000000e+000	0.000000e+000
5.187295520893705e-004	4.951910e-002	5.000000e+000	0.000000e+000
5.189295520893704e-004	4.942275e-002	5.000000e+000	0.000000e+000
5.192295520893703e-004	4.927832e-002	5.000000e+000	0.000000e+000
5.195295520893701e-004	4.913405e-002	5.000000e+000	0.000000e+000
5.198295520893700e-004	4.898996e-002	5.000000e+000	0.000000e+000
5.201295520893698e-004	4.884603e-002	5.000000e+000	0.000000e+000
5.204295520893697e-004	4.870238e-002	5.000000e+000	0.000000e+000
5.207295520893695e-004	4.855900e-002	5.000000e+000	0.000000e+000
5.210295520893693e-004	4.841590e-002	5.000000e+000	0.000000e+000
5.213295520893692e-004	4.827307e-002	5.000000e+000	0.000000e+000
5.216295520893690e-004	4.813051e-002	5.000000e+000	0.000000e+000
5.219295520893689e-004	4.798822e-002	5.000000e+000	0.000000e+000
5.222866949465115e-004	4.781927e-002	5.000000e+000	0.000000e+000
5.226438378036542e-004	4.765081e-002	5.000000e+000	0.000000e+000
5.230009806607968e-004	4.748284e-002	5.000000e+000	0.000000e+000
5.233581235179396e-004	4.731537e-002	5.000000e+000	0.000000e+000
5.237152663750823e-004	4.714840e-002	5.000000e+000	0.000000e+000
5.240724092322249e-004	4.698192e-002	5.000000e+000	0.000000e+000
5.244295520893676e-004	4.681593e-002	5.000000e+000	0.000000e+000
5.249009806607959e-004	4.659765e-002	5.000000e+000	0.000000e+000
5.253724092322243e-004	4.638030e-002	5.000000e+000	0.000000e+000
5.258438378036525e-004	4.616389e-002	5.000000e+000	0.000000e+000
5.263152663750809e-004	4.594843e-002	5.000000e+000	0.000000e+000
5.267866949465092e-004	4.573390e-002	5.000000e+000	0.000000e+000
5.272581235179376e-004	4.552032e-002	5.000000e+000	0.000000e+000
5.277295520893659e-004	4.530767e-002	5.000000e+000	0.000000e+000
5.283152663750799e-004	4.504482e-002	5.000000e+000	0.000000e+000
5.289009806607938e-004	4.478343e-002	5.000000e+000	0.000000e+000
5.294866949465078e-004	4.452352e-002	5.000000e+000	0.000000e+000
5.300724092322218e-004	4.426507e-002	5.000000e+000	0.000000e+000
5.306581235179358e-004	4.400809e-002	5.000000e+000	0.000000e+000
5.312438378036497e-004	4.375257e-002	5.000000e+000	0.000000e+000
5.318295520893638e-004	4.349852e-002	5.000000e+000	0.000000e+000
5.319295520893637e-004	4.345529e-002	5.000000e+000	0.000000e+000
5.330866949465059e-004	4.295827e-002	5.000000e+000	0.000000e+000
5.342438378036482e-004	4.246674e-002	5.000000e+000	0.000000e+000
5.354009806607904e-004	4.198071e-002	5.000000e+000	0.000000e+000
5.365581235179328e-004	4.150017e-002	5.000000e+000	0.000000e+000
5.377152663750750e-004	4.102514e-002	5.000000e+000	0.000000e+000
5.388724092322173e-004	4.055560e-002	5.000000e+000	0.000000e+000
5.400295520893595e-004	4.009155e-002	5.000000e+000	0.000000e+000
5.429295520893580e-004	3.895356e-002	5.000000e+000	0.000000e+000
5.458295520893565e-004	3.784578e-002	5.000000e+000	0.000000e+000
5.487295520893550e-004	3.676822e-002	5.000000e+000	0.000000e+000
5.516295520893535e-004	3.572086e-002	5.000000e+000	0.000000e+000
5.545295520893520e-004	3.470371e-002	5.000000e+000	0.000000e+000
5.574295520893505e-004	3.371678e-002	5.000000e+000	0.000000e+000
5.603295520893490e-004	3.276005e-002	5.000000e+000	0.000000e+000
5.619295520893482e-004	3.224278e-002	5.000000e+000	0.000000e+000
5.643724092322041e-004	3.146983e-002	5.000000e+000	0.000000e+000
5.668152663750600e-004	3.071442e-002	5.000000e+000	0.000000e+000
5.692581235179158e-004	2.997656e-002	5.000000e+000	0.000000e+000
5.717009806607716e-004	2.925623e-002	5.000000e+000	0.000000e+000
5.741438378036275e-004	2.855344e-002	5.000000e+000	0.000000e+000
5.765866949464834e-004	2.786820e-002	5.000000e+000	0.000000e+000
5.790295520893393e-004	2.720049e-002	5.000000e+000	0.000000e+000
5.808581235179098e-004	2.671085e-002	5.000000e+000	0.000000e+000
5.826866949464803e-004	2.622969e-002	5.000000e+000	0.000000e+000
5.845152663750508e-004	2.575699e-002	5.000000e+000	0.000000e+000
5.863438378036212e-004	2.529276e-002	5.000000e+000	0.000000e+000
5.881724092321917e-004	2.483700e-002	5.000000e+000	0.000000e+000
5.900009806607622e-004	2.438971e-002	5.000000e+000	0.000000e+000
5.918295520893327e-004	2.395089e-002	5.000000e+000	0.000000e+000
5.919295520893326e-004	2.392710e-002	5.000000e+000	0.000000e+000
5.940152663750459e-004	2.343683e-002	5.000000e+000	0.000000e+000
5.961009806607590e-004	2.295616e-002	5.000000e+000	0.000000e+000
5.981866949464722e-004	2.248509e-002	5.000000e+000	0.000000e+000
6.002724092321855e-004	2.202364e-002	5.000000e+000	0.000000e+000
6.023581235178987e-004	2.157179e-002	5.000000e+000	0.000000e+000
6.044438378036118e-004	2.112955e-002	5.000000e+000	0.000000e+000
6.065295520893251e-004	2.069692e-002	5.000000e+000	0.000000e+000
6.087152663750383e-004	2.025310e-002	5.000000e+000	0.000000e+000
