time	V(vout)	I(I1)
0.000000000000000e+000	1.015065e-001	5.000000e-004
3.214285714285704e-009	1.018840e-001	5.000000e-004
6.428571428571407e-009	1.022347e-001	5.000000e-004
9.642857142857111e-009	1.025586e-001	5.000000e-004
1.285714285714281e-008	1.028557e-001	5.000000e-004
1.607142857142852e-008	1.031259e-001	5.000000e-004
1.928571428571422e-008	1.033693e-001	5.000000e-004
2.249999999999992e-008	1.035860e-001	5.000000e-004
2.578571428571419e-008	1.037896e-001	5.000000e-004
2.907142857142846e-008	1.039786e-001	5.000000e-004
3.235714285714274e-008	1.041527e-001	5.000000e-004
3.564285714285701e-008	1.043121e-001	5.000000e-004
3.892857142857129e-008	1.044568e-001	5.000000e-004
4.221428571428555e-008	1.045867e-001	5.000000e-004
4.549999999999982e-008	1.047018e-001	5.000000e-004
4.878571428571409e-008	1.048078e-001	5.000000e-004
5.207142857142837e-008	1.049062e-001	5.000000e-004
5.535714285714264e-008	1.049968e-001	5.000000e-004
5.864285714285691e-008	1.050798e-001	5.000000e-004
6.192857142857119e-008	1.051551e-001	5.000000e-004
6.521428571428546e-008	1.052227e-001	5.000000e-004
6.849999999999972e-008	1.052826e-001	5.000000e-004
7.192857142857113e-008	1.053400e-001	5.000000e-004
7.535714285714255e-008	1.053931e-001	5.000000e-004
7.878571428571396e-008	1.054419e-001	5.000000e-004
8.221428571428539e-008	1.054864e-001	5.000000e-004
8.564285714285680e-008	1.055266e-001	5.000000e-004
8.907142857142821e-008	1.055625e-001	5.000000e-004
9.249999999999962e-008	1.055941e-001	5.000000e-004
9.621428571428531e-008	1.056253e-001	5.000000e-004
9.992857142857101e-008	1.056541e-001	5.000000e-004
1.036428571428567e-007	1.056803e-001	5.000000e-004
1.073571428571424e-007	1.057041e-001	5.000000e-004
1.110714285714281e-007	1.057254e-001	5.000000e-004
1.147857142857138e-007	1.057442e-001	5.000000e-004
1.184999999999995e-007	1.057606e-001	5.000000e-004
1.226428571428567e-007	1.057770e-001	5.000000e-004
1.267857142857138e-007	1.057921e-001	5.000000e-004
1.309285714285710e-007	1.058057e-001	5.000000e-004
1.350714285714282e-007	1.058180e-001	5.000000e-004
1.392142857142853e-007	1.058288e-001	5.000000e-004
1.433571428571425e-007	1.058381e-001	5.000000e-004
1.474999999999997e-007	1.058461e-001	5.000000e-004
1.524999999999998e-007	1.058546e-001	5.000000e-004
1.574999999999999e-007	1.058624e-001	5.000000e-004
1.625000000000000e-007	1.058692e-001	5.000000e-004
1.675000000000001e-007	1.058752e-001	5.000000e-004
1.725000000000002e-007	1.058804e-001	5.000000e-004
1.775000000000003e-007	1.058848e-001	5.000000e-004
1.825000000000004e-007	1.058883e-001	5.000000e-004
1.895000000000006e-007	1.058925e-001	5.000000e-004
1.965000000000007e-007	1.058962e-001	5.000000e-004
2.035000000000009e-007	1.058994e-001	5.000000e-004
2.105000000000010e-007	1.059020e-001	5.000000e-004
2.175000000000012e-007	1.059042e-001	5.000000e-004
2.245000000000014e-007	1.059058e-001	5.000000e-004
2.315000000000015e-007	1.059070e-001	5.000000e-004
2.406428571428589e-007	1.059083e-001	5.000000e-004
2.497857142857162e-007	1.059094e-001	5.000000e-004
2.589285714285735e-007	1.059103e-001	5.000000e-004
2.680714285714309e-007	1.059111e-001	5.000000e-004
2.772142857142883e-007	1.059116e-001	5.000000e-004
2.863571428571456e-007	1.059120e-001	5.000000e-004
2.955000000000029e-007	1.059122e-001	5.000000e-004
2.965000000000030e-007	1.059123e-001	5.000000e-004
3.346428571428595e-007	1.059127e-001	5.000000e-004
3.727857142857161e-007	1.059131e-001	5.000000e-004
4.109285714285728e-007	1.059134e-001	5.000000e-004
4.490714285714294e-007	1.059136e-001	5.000000e-004
4.872142857142860e-007	1.059137e-001	5.000000e-004
5.253571428571426e-007	1.059137e-001	5.000000e-004
5.634999999999990e-007	1.059137e-001	5.000000e-004
5.964999999999980e-007	1.059137e-001	5.000000e-004
8.964999999999933e-007	1.059142e-001	5.000000e-004
1.196500000000016e-006	1.059147e-001	5.000000e-004
1.496500000000039e-006	1.059152e-001	5.000000e-004
1.796500000000061e-006	1.059157e-001	5.000000e-004
1.901000000000000e-006	1.059159e-001	5.000000e-004
1.901099999999986e-006	1.059130e-001	4.500000e-004
1.901299999999959e-006	1.059014e-001	3.500000e-004
1.901600000000055e-006	1.058682e-001	2.000000e-004
1.902000000000000e-006	1.058042e-001	0.000000e+000
1.902039999999995e-006	1.057951e-001	0.000000e+000
1.902119999999984e-006	1.057765e-001	0.000000e+000
1.902279999999962e-006	1.057376e-001	0.000000e+000
1.902599999999918e-006	1.056515e-001	0.000000e+000
1.902999275420823e-006	1.055261e-001	0.000000e+000
1.903674385243952e-006	1.052713e-001	0.000000e+000
1.904659641275296e-006	1.048264e-001	0.000000e+000
1.905659641275296e-006	1.042950e-001	0.000000e+000
1.906659641275296e-006	1.036873e-001	0.000000e+000
1.907659641275296e-006	1.030138e-001	0.000000e+000
1.908659641275296e-006	1.022842e-001	0.000000e+000
1.909659641275296e-006	1.015072e-001	0.000000e+000
1.910659641275297e-006	1.006904e-001	0.000000e+000
1.911659641275297e-006	9.984092e-002	0.000000e+000
1.912659641275297e-006	9.896486e-002	0.000000e+000
1.913659641275297e-006	9.806775e-002	0.000000e+000
1.915659641275297e-006	9.622941e-002	0.000000e+000
1.917659641275297e-006	9.435894e-002	0.000000e+000
1.919659641275297e-006	9.248220e-002	0.000000e+000
1.922659641275297e-006	8.969803e-002	0.000000e+000
1.924516784132440e-006	8.800228e-002	0.000000e+000
1.926373926989584e-006	8.635613e-002	0.000000e+000
1.928231069846726e-006	8.475959e-002	0.000000e+000
1.930088212703870e-006	8.321265e-002	0.000000e+000
1.931945355561012e-006	8.171532e-002	0.000000e+000
1.933802498418156e-006	8.026760e-002	0.000000e+000
1.935659641275298e-006	7.886948e-002	0.000000e+000
1.938802498418156e-006	7.665890e-002	0.000000e+000
1.941945355561013e-006	7.458979e-002	0.000000e+000
1.945088212703871e-006	7.266217e-002	0.000000e+000
1.948231069846728e-006	7.087603e-002	0.000000e+000
1.951373926989585e-006	6.923136e-002	0.000000e+000
1.954516784132443e-006	6.772818e-002	0.000000e+000
1.957659641275300e-006	6.636647e-002	0.000000e+000
1.960802498418158e-006	6.511646e-002	0.000000e+000
1.963945355561015e-006	6.395247e-002	0.000000e+000
1.967088212703872e-006	6.287451e-002	0.000000e+000
1.970231069846729e-006	6.188259e-002	0.000000e+000
1.973373926989587e-006	6.097669e-002	0.000000e+000
1.976516784132444e-006	6.015682e-002	0.000000e+000
1.979659641275302e-006	5.942298e-002	0.000000e+000
1.982802498418159e-006	5.874627e-002	0.000000e+000
1.985945355561016e-006	5.811677e-002	0.000000e+000
1.989088212703874e-006	5.753448e-002	0.000000e+000
1.992231069846731e-006	5.699941e-002	0.000000e+000
1.995373926989589e-006	5.651155e-002	0.000000e+000
1.998516784132446e-006	5.607090e-002	0.000000e+000
2.001659641275303e-006	5.567746e-002	0.000000e+000
2.004802498418161e-006	5.531431e-002	0.000000e+000
2.007945355561018e-006	5.497657e-002	0.000000e+000
2.011088212703876e-006	5.466423e-002	0.000000e+000
2.014231069846733e-006	5.437730e-002	0.000000e+000
2.017373926989590e-006	5.411578e-002	0.000000e+000
2.020516784132447e-006	5.387966e-002	0.000000e+000
2.023659641275305e-006	5.366896e-002	0.000000e+000
2.026945355561020e-006	5.346627e-002	0.000000e+000
2.030231069846734e-006	5.327826e-002	0.000000e+000
2.033516784132448e-006	5.310494e-002	0.000000e+000
2.036802498418163e-006	5.294631e-002	0.000000e+000
2.040088212703878e-006	5.280236e-002	0.000000e+000
2.043373926989592e-006	5.267310e-002	0.000000e+000
2.046659641275307e-006	5.255853e-002	0.000000e+000
2.049945355561021e-006	5.245303e-002	0.000000e+000
2.053231069846736e-006	5.235518e-002	0.000000e+000
2.056516784132450e-006	5.226498e-002	0.000000e+000
2.059802498418165e-006	5.218242e-002	0.000000e+000
2.063088212703880e-006	5.210750e-002	0.000000e+000
2.066373926989594e-006	5.204023e-002	0.000000e+000
2.069659641275309e-006	5.198060e-002	0.000000e+000
2.072231069846737e-006	5.193693e-002	0.000000e+000
2.074802498418166e-006	5.189586e-002	0.000000e+000
2.077373926989595e-006	5.185740e-002	0.000000e+000
2.079945355561024e-006	5.182155e-002	0.000000e+000
2.082516784132452e-006	5.178830e-002	0.000000e+000
2.085088212703881e-006	5.175766e-002	0.000000e+000
2.087659641275310e-006	5.172962e-002	0.000000e+000
2.088659641275310e-006	5.171909e-002	0.000000e+000
2.092231069846739e-006	5.168453e-002	0.000000e+000
2.095802498418168e-006	5.165264e-002	0.000000e+000
2.099373926989597e-006	5.162342e-002	0.000000e+000
2.102945355561025e-006	5.159687e-002	0.000000e+000
2.106516784132454e-006	5.157299e-002	0.000000e+000
2.110088212703883e-006	5.155177e-002	0.000000e+000
2.113659641275312e-006	5.153323e-002	0.000000e+000
2.117659641275312e-006	5.151440e-002	0.000000e+000
2.121659641275312e-006	5.149714e-002	0.000000e+000
2.125659641275313e-006	5.148147e-002	0.000000e+000
2.129659641275313e-006	5.146739e-002	0.000000e+000
2.133659641275313e-006	5.145488e-002	0.000000e+000
2.137659641275314e-006	5.144396e-002	0.000000e+000
2.141659641275314e-006	5.143462e-002	0.000000e+000
2.146373926989600e-006	5.142478e-002	0.000000e+000
2.151088212703886e-006	5.141587e-002	0.000000e+000
2.155802498418172e-006	5.140788e-002	0.000000e+000
2.160516784132458e-006	5.140083e-002	0.000000e+000
2.165231069846744e-006	5.139471e-002	0.000000e+000
2.169945355561030e-006	5.138951e-002	0.000000e+000
2.174659641275316e-006	5.138525e-002	0.000000e+000
2.181088212703888e-006	5.138023e-002	0.000000e+000
2.187516784132460e-006	5.137579e-002	0.000000e+000
2.193945355561032e-006	5.137193e-002	0.000000e+000
2.200373926989604e-006	5.136865e-002	0.000000e+000
2.206802498418176e-006	5.136595e-002	0.000000e+000
2.213231069846748e-006	5.136384e-002	0.000000e+000
2.219659641275320e-006	5.136230e-002	0.000000e+000
2.230088212703892e-006	5.136028e-002	0.000000e+000
2.240516784132464e-006	5.135856e-002	0.000000e+000
2.250945355561036e-006	5.135715e-002	0.000000e+000
2.261373926989609e-006	5.135604e-002	0.000000e+000
2.271802498418181e-006	5.135524e-002	0.000000e+000
2.282231069846753e-006	5.135474e-002	0.000000e+000
2.292659641275325e-006	5.135455e-002	0.000000e+000
2.306231069846755e-006	5.135425e-002	0.000000e+000
2.319802498418185e-006	5.135400e-002	0.000000e+000
2.333373926989614e-006	5.135380e-002	0.000000e+000
2.346945355561044e-006	5.135365e-002	0.000000e+000
2.360516784132473e-006	5.135355e-002	0.000000e+000
2.374088212703903e-006	5.135350e-002	0.000000e+000
2.387659641275332e-006	5.135351e-002	0.000000e+000
2.388659641275332e-006	5.135350e-002	0.000000e+000
2.688659641275355e-006	5.135342e-002	0.000000e+000
2.988659641275378e-006	5.135340e-002	0.000000e+000
3.288659641275400e-006	5.135338e-002	0.000000e+000
3.588659641275423e-006	5.135337e-002	0.000000e+000
3.888659641275371e-006	5.135335e-002	0.000000e+000
3.900000000000000e-006	5.135335e-002	0.000000e+000
3.900010047815279e-006	5.135337e-002	5.023908e-006
3.900030143445837e-006	5.135345e-002	1.507172e-005
3.900070334706953e-006	5.135396e-002	3.516736e-005
3.900150717229184e-006	5.135649e-002	7.535861e-005
3.900311482273646e-006	5.136630e-002	1.557411e-004
3.900536927760753e-006	5.138830e-002	2.684639e-004
3.900778221496268e-006	5.142260e-002	3.891108e-004
3.901000000000000e-006	5.146284e-002	5.000000e-004
3.901022177850373e-006	5.146794e-002	5.000000e-004
3.901066533551119e-006	5.147821e-002	5.000000e-004
3.901155244952611e-006	5.149901e-002	5.000000e-004
3.901332667755597e-006	5.154222e-002	5.000000e-004
3.901564644205132e-006	5.160350e-002	5.000000e-004
3.901819947808780e-006	5.167957e-002	5.000000e-004
3.902268965907763e-006	5.183105e-002	5.000000e-004
3.902729148380282e-006	5.201104e-002	5.000000e-004
3.903649513325321e-006	5.243349e-002	5.000000e-004
3.904649513325321e-006	5.296514e-002	5.000000e-004
3.905649513325321e-006	5.357174e-002	5.000000e-004
3.906649513325320e-006	5.424431e-002	5.000000e-004
3.907649513325320e-006	5.497313e-002	5.000000e-004
3.908649513325320e-006	5.574951e-002	5.000000e-004
3.909649513325319e-006	5.656568e-002	5.000000e-004
3.910649513325319e-006	5.741470e-002	5.000000e-004
3.911649513325319e-006	5.829037e-002	5.000000e-004
3.912649513325318e-006	5.918717e-002	5.000000e-004
3.914649513325318e-006	6.102507e-002	5.000000e-004
3.916649513325317e-006	6.289532e-002	5.000000e-004
3.918649513325316e-006	6.477200e-002	5.000000e-004
3.921649513325315e-006	6.755632e-002	5.000000e-004
3.923506656182457e-006	6.925230e-002	5.000000e-004
3.925363799039600e-006	7.089870e-002	5.000000e-004
3.927220941896742e-006	7.249554e-002	5.000000e-004
3.929078084753884e-006	7.404280e-002	5.000000e-004
3.930935227611026e-006	7.554049e-002	5.000000e-004
3.932792370468169e-006	7.698861e-002	5.000000e-004
3.934649513325311e-006	7.838716e-002	5.000000e-004
3.937792370468167e-006	8.059846e-002	5.000000e-004
3.940935227611022e-006	8.266827e-002	5.000000e-004
3.944078084753879e-006	8.459659e-002	5.000000e-004
3.947220941896735e-006	8.638341e-002	5.000000e-004
3.950363799039591e-006	8.802873e-002	5.000000e-004
3.953506656182447e-006	8.953256e-002	5.000000e-004
3.956649513325303e-006	9.089489e-002	5.000000e-004
3.959792370468159e-006	9.214549e-002	5.000000e-004
3.962935227611015e-006	9.331002e-002	5.000000e-004
3.966078084753871e-006	9.438849e-002	5.000000e-004
3.969220941896727e-006	9.538090e-002	5.000000e-004
3.972363799039584e-006	9.628725e-002	5.000000e-004
3.975506656182439e-006	9.710754e-002	5.000000e-004
3.978649513325295e-006	9.784177e-002	5.000000e-004
3.981792370468152e-006	9.851885e-002	5.000000e-004
3.984935227611007e-006	9.914869e-002	5.000000e-004
3.988078084753863e-006	9.973129e-002	5.000000e-004
3.991220941896720e-006	1.002667e-001	5.000000e-004
3.994363799039576e-006	1.007548e-001	5.000000e-004
3.997506656182431e-006	1.011957e-001	5.000000e-004
4.000649513325288e-006	1.015894e-001	5.000000e-004
4.003792370468144e-006	1.019527e-001	5.000000e-004
4.006935227610999e-006	1.022907e-001	5.000000e-004
4.010078084753856e-006	1.026032e-001	5.000000e-004
4.013220941896712e-006	1.028903e-001	5.000000e-004
4.016363799039568e-006	1.031520e-001	5.000000e-004
4.019506656182424e-006	1.033882e-001	5.000000e-004
4.022649513325280e-006	1.035991e-001	5.000000e-004
4.025935227610993e-006	1.038019e-001	5.000000e-004
4.029220941896706e-006	1.039900e-001	5.000000e-004
4.032506656182419e-006	1.041634e-001	5.000000e-004
4.035792370468133e-006	1.043222e-001	5.000000e-004
4.039078084753846e-006	1.044662e-001	5.000000e-004
4.042363799039559e-006	1.045955e-001	5.000000e-004
4.045649513325272e-006	1.047102e-001	5.000000e-004
4.048935227610985e-006	1.048158e-001	5.000000e-004
4.052220941896698e-006	1.049137e-001	5.000000e-004
4.055506656182411e-006	1.050039e-001	5.000000e-004
4.058792370468125e-006	1.050866e-001	5.000000e-004
4.062078084753838e-006	1.051615e-001	5.000000e-004
4.065363799039551e-006	1.052288e-001	5.000000e-004
4.068649513325264e-006	1.052885e-001	5.000000e-004
4.072078084753834e-006	1.053456e-001	5.000000e-004
4.075506656182404e-006	1.053985e-001	5.000000e-004
4.078935227610974e-006	1.054471e-001	5.000000e-004
4.082363799039545e-006	1.054914e-001	5.000000e-004
4.085792370468115e-006	1.055314e-001	5.000000e-004
4.089220941896685e-006	1.055672e-001	5.000000e-004
4.092649513325256e-006	1.055987e-001	5.000000e-004
4.096363799039540e-006	1.056298e-001	5.000000e-004
4.100078084753824e-006	1.056584e-001	5.000000e-004
4.103792370468109e-006	1.056845e-001	5.000000e-004
4.107506656182393e-006	1.057082e-001	5.000000e-004
4.111220941896678e-006	1.057294e-001	5.000000e-004
4.114935227610962e-006	1.057482e-001	5.000000e-004
4.118649513325246e-006	1.057644e-001	5.000000e-004
4.122792370468102e-006	1.057808e-001	5.000000e-004
4.126935227610958e-006	1.057958e-001	5.000000e-004
4.131078084753813e-006	1.058094e-001	5.000000e-004
4.135220941896669e-006	1.058216e-001	5.000000e-004
4.139363799039525e-006	1.058323e-001	5.000000e-004
4.143506656182380e-006	1.058417e-001	5.000000e-004
4.147649513325236e-006	1.058496e-001	5.000000e-004
4.150220941896664e-006	1.058542e-001	5.000000e-004
4.152792370468092e-006	1.058586e-001	5.000000e-004
4.155363799039520e-006	1.058627e-001	5.000000e-004
4.157935227610947e-006	1.058665e-001	5.000000e-004
4.160506656182375e-006	1.058700e-001	5.000000e-004
4.163078084753802e-006	1.058733e-001	5.000000e-004
4.165649513325230e-006	1.058763e-001	5.000000e-004
4.166649513325230e-006	1.058774e-001	5.000000e-004
4.172649513325228e-006	1.058832e-001	5.000000e-004
4.178649513325226e-006	1.058884e-001	5.000000e-004
4.184649513325223e-006	1.058929e-001	5.000000e-004
4.190649513325221e-006	1.058967e-001	5.000000e-004
4.196649513325219e-006	1.059000e-001	5.000000e-004
4.202649513325217e-006	1.059026e-001	5.000000e-004
4.208649513325215e-006	1.059045e-001	5.000000e-004
4.217935227610926e-006	1.059070e-001	5.000000e-004
4.227220941896637e-006	1.059091e-001	5.000000e-004
4.236506656182348e-006	1.059109e-001	5.000000e-004
4.245792370468060e-006	1.059124e-001	5.000000e-004
4.255078084753770e-006	1.059134e-001	5.000000e-004
4.264363799039482e-006	1.059142e-001	5.000000e-004
4.273649513325192e-006	1.059145e-001	5.000000e-004
4.297078084753756e-006	1.059152e-001	5.000000e-004
4.320506656182319e-006	1.059158e-001	5.000000e-004
4.343935227610882e-006	1.059162e-001	5.000000e-004
4.367363799039446e-006	1.059165e-001	5.000000e-004
4.390792370468009e-006	1.059167e-001	5.000000e-004
4.414220941896572e-006	1.059167e-001	5.000000e-004
4.437649513325135e-006	1.059166e-001	5.000000e-004
4.466649513325125e-006	1.059167e-001	5.000000e-004
4.766649513325021e-006	1.059172e-001	5.000000e-004
5.066649513324916e-006	1.059177e-001	5.000000e-004
5.366649513324812e-006	1.059182e-001	5.000000e-004
5.666649513324707e-006	1.059186e-001	5.000000e-004
5.901000000000000e-006	1.059190e-001	5.000000e-004
5.901039221319402e-006	1.059186e-001	4.803893e-004
5.901117663958206e-006	1.059167e-001	4.411680e-004
5.901274549235814e-006	1.059077e-001	3.627254e-004
5.901588319791030e-006	1.058796e-001	2.058401e-004
5.901630541453054e-006	1.058746e-001	1.847293e-004
5.901714984777104e-006	1.058622e-001	1.425076e-004
5.901831113351900e-006	1.058423e-001	8.444332e-005
5.902000000000000e-006	1.058093e-001	1.742313e-016
5.902016888664810e-006	1.058054e-001	5.807710e-017
5.902050665994429e-006	1.057976e-001	0.000000e+000
5.902118220653669e-006	1.057819e-001	0.000000e+000
5.902253329972149e-006	1.057494e-001	0.000000e+000
5.902523548609107e-006	1.056789e-001	0.000000e+000
5.902855501502510e-006	1.055793e-001	0.000000e+000
5.903442611772875e-006	1.053706e-001	0.000000e+000
5.904262942039998e-006	1.050228e-001	0.000000e+000
5.905262942039997e-006	1.045213e-001	0.000000e+000
5.906262942039997e-006	1.039430e-001	0.000000e+000
5.907262942039997e-006	1.032946e-001	0.000000e+000
5.908262942039996e-006	1.025863e-001	0.000000e+000
5.909262942039996e-006	1.018272e-001	0.000000e+000
5.910262942039996e-006	1.010255e-001	0.000000e+000
5.911262942039995e-006	1.001883e-001	0.000000e+000
5.912262942039995e-006	9.932215e-002	0.000000e+000
5.913262942039995e-006	9.843282e-002	0.000000e+000
5.915262942039994e-006	9.660460e-002	0.000000e+000
5.917262942039993e-006	9.473825e-002	0.000000e+000
5.919262942039993e-006	9.286095e-002	0.000000e+000
5.922262942039992e-006	9.006944e-002	0.000000e+000
5.925262942039990e-006	8.735165e-002	0.000000e+000
5.927405799182847e-006	8.546808e-002	0.000000e+000
5.929548656325703e-006	8.365590e-002	0.000000e+000
5.931691513468560e-006	8.191513e-002	0.000000e+000
5.933834370611416e-006	8.024575e-002	0.000000e+000
5.935977227754273e-006	7.864776e-002	0.000000e+000
5.938120084897129e-006	7.712118e-002	0.000000e+000
5.940262942039985e-006	7.566600e-002	0.000000e+000
5.941548656325699e-006	7.483099e-002	0.000000e+000
5.942834370611413e-006	7.402057e-002	0.000000e+000
5.944120084897127e-006	7.323473e-002	0.000000e+000
5.945405799182841e-006	7.247348e-002	0.000000e+000
